
**** 03/22/112 21:27:47 ******** NT Evaluation PSpice (July 1997) ************

 * Y:\SSIM\UE\Abgabe2\bsp1.sch


 ****     CIRCUIT DESCRIPTION


******************************************************************************




* Schematics Version 8.0 - July 1997
* Thu Mar 22 21:27:46 2012



** Analysis setup **
.OP 


* From [SCHEMATICS NETLIST] section of msim.ini:
.lib nom.lib

.INC "bsp1.net"

**** INCLUDING bsp1.net ****
* Schematics Netlist *



R_R2         $N_0002 $N_0001  2  
R_R3         0 $N_0003  2  
V_V1         $N_0004 0 DC=5
I_I1         $N_0001 $N_0003 DC 1  
L_L1         $N_0002 0  10uH  
R_R1         $N_0004 $N_0002  5  

**** RESUMING bsp1.cir ****
.INC "bsp1.als"



**** INCLUDING bsp1.als ****
* Schematics Aliases *

.ALIASES
R_R2            R2(1=$N_0002 2=$N_0001 )
R_R3            R3(1=0 2=$N_0003 )
V_V1            V1(+=$N_0004 -=0 )
I_I1            I1(+=$N_0001 -=$N_0003 )
L_L1            L1(1=$N_0002 2=0 )
R_R1            R1(1=$N_0004 2=$N_0002 )
.ENDALIASES


**** RESUMING bsp1.cir ****
.probe


.END

**** 03/22/112 21:27:47 ******** NT Evaluation PSpice (July 1997) ************

 * Y:\SSIM\UE\Abgabe2\bsp1.sch


 ****     SMALL SIGNAL BIAS SOLUTION       TEMPERATURE =   27.000 DEG C


******************************************************************************



 NODE   VOLTAGE     NODE   VOLTAGE     NODE   VOLTAGE     NODE   VOLTAGE


($N_0001)   -2.0000                   ($N_0002)    0.0000                       

($N_0003)    2.0000                   ($N_0004)    5.0000                   




    VOLTAGE SOURCE CURRENTS
    NAME         CURRENT

    V_V1        -1.000E+00

    TOTAL POWER DISSIPATION   5.00E+00  WATTS


**** 03/22/112 21:27:47 ******** NT Evaluation PSpice (July 1997) ************

 * Y:\SSIM\UE\Abgabe2\bsp1.sch


 ****     OPERATING POINT INFORMATION      TEMPERATURE =   27.000 DEG C


******************************************************************************





          JOB CONCLUDED

          TOTAL JOB TIME             .35
