
**** 03/26/112 19:26:59 ******** NT Evaluation PSpice (July 1997) ************

 * Y:\SSIM\UE\REPO\ABGABE2\SIM\bsp2.sch


 ****     CIRCUIT DESCRIPTION


******************************************************************************




* Schematics Version 8.0 - July 1997
* Mon Mar 26 19:26:59 2012



** Analysis setup **
.OP 


* From [SCHEMATICS NETLIST] section of msim.ini:
.lib nom.lib

.INC "bsp2.net"

**** INCLUDING bsp2.net ****
* Schematics Netlist *



R_R1         $N_0002 $N_0001  560  
I_I1         0 $N_0001 DC 10mA  
R_R6         $N_0004 $N_0003  560  
I_I6         0 $N_0003 DC 10mA  
D_D4         $N_0004 0 D1N750 
R_R2         $N_0006 $N_0005  560  
I_I2         0 $N_0005 DC 10mA  
R_R7         $N_0008 $N_0007  560  
I_I7         0 $N_0007 DC 10mA  
R_R4         $N_0010 $N_0009  560  
I_I4         0 $N_0009 DC 10mA  
R_R9         $N_0012 $N_0011  560  
I_I9         0 $N_0011 DC 10mA  
D_D1         $N_0002 0 D1N4002 
R_R8         $N_0008 0  359m  
R_R3         $N_0006 0  347m  
I_I3         $N_0006 0 DC -2.1582  
R_R5         $N_0010 0  908.3m  
I_I5         $N_0010 0 DC -0.7737  
I_I8         $N_0008 0 DC -2.1553  
R_R10         $N_0012 0  890.1m  
I_I10         $N_0012 0 DC -0.8452  

**** RESUMING bsp2.cir ****
.INC "bsp2.als"



**** INCLUDING bsp2.als ****
* Schematics Aliases *

.ALIASES
R_R1            R1(1=$N_0002 2=$N_0001 )
I_I1            I1(+=0 -=$N_0001 )
R_R6            R6(1=$N_0004 2=$N_0003 )
I_I6            I6(+=0 -=$N_0003 )
D_D4            D4(1=$N_0004 2=0 )
R_R2            R2(1=$N_0006 2=$N_0005 )
I_I2            I2(+=0 -=$N_0005 )
R_R7            R7(1=$N_0008 2=$N_0007 )
I_I7            I7(+=0 -=$N_0007 )
R_R4            R4(1=$N_0010 2=$N_0009 )
I_I4            I4(+=0 -=$N_0009 )
R_R9            R9(1=$N_0012 2=$N_0011 )
I_I9            I9(+=0 -=$N_0011 )
D_D1            D1(1=$N_0002 2=0 )
R_R8            R8(1=$N_0008 2=0 )
R_R3            R3(1=$N_0006 2=0 )
I_I3            I3(+=$N_0006 -=0 )
R_R5            R5(1=$N_0010 2=0 )
I_I5            I5(+=$N_0010 -=0 )
I_I8            I8(+=$N_0008 -=0 )
R_R10           R10(1=$N_0012 2=0 )
I_I10           I10(+=$N_0012 -=0 )
.ENDALIASES


**** RESUMING bsp2.cir ****
.probe


.END

**** 03/26/112 19:26:59 ******** NT Evaluation PSpice (July 1997) ************

 * Y:\SSIM\UE\REPO\ABGABE2\SIM\bsp2.sch


 ****     Diode MODEL PARAMETERS


******************************************************************************




               D1N750          D1N4002         
          IS  880.500000E-18   14.110000E-09 
           N                    1.984        
         ISR    1.859000E-09  100.000000E-12 
         IKF                   94.81         
          BV    4.7           100.1          
         IBV     .020245       10            
         NBV    1.6989                       
        IBVL    1.955600E-03                 
        NBVL   14.976                        
          RS     .25             .03389      
          TT                    4.761000E-06 
         CJO  175.000000E-12   51.170000E-12 
          VJ     .75             .3905       
           M     .5516           .2762       
        TBV1  -21.277000E-06                 


**** 03/26/112 19:26:59 ******** NT Evaluation PSpice (July 1997) ************

 * Y:\SSIM\UE\REPO\ABGABE2\SIM\bsp2.sch


 ****     SMALL SIGNAL BIAS SOLUTION       TEMPERATURE =   27.000 DEG C


******************************************************************************



 NODE   VOLTAGE     NODE   VOLTAGE     NODE   VOLTAGE     NODE   VOLTAGE


($N_0001)    6.2913                   ($N_0002)     .6913                       

($N_0003)    6.3761                   ($N_0004)     .7761                       

($N_0005)    6.3524                   ($N_0006)     .7524                       

($N_0007)    6.3773                   ($N_0008)     .7773                       

($N_0009)    6.3118                   ($N_0010)     .7118                       

($N_0011)    6.3612                   ($N_0012)     .7612                   




    VOLTAGE SOURCE CURRENTS
    NAME         CURRENT


    TOTAL POWER DISSIPATION   0.00E+00  WATTS


**** 03/26/112 19:26:59 ******** NT Evaluation PSpice (July 1997) ************

 * Y:\SSIM\UE\REPO\ABGABE2\SIM\bsp2.sch


 ****     OPERATING POINT INFORMATION      TEMPERATURE =   27.000 DEG C


******************************************************************************






**** DIODES


NAME         D_D4        D_D1      
MODEL        D1N750      D1N4002   
ID           1.00E-02    1.00E-02 
VD           7.76E-01    6.91E-01 
REQ          2.74E+00    5.13E+00 
CAP          4.07E-10    9.28E-07 

          JOB CONCLUDED

          TOTAL JOB TIME             .73
