
**** 05/21/112 20:36:11 ******** NT Evaluation PSpice (July 1997) ************

 * Y:\SSIM\UE\repo\abgabe3\sim\3_klirr.sch


 ****     CIRCUIT DESCRIPTION


******************************************************************************




* Schematics Version 8.0 - July 1997
* Mon May 21 20:36:10 2012



** Analysis setup **
.tran 2ns 0.0035ms 0 0.002us
.OP 


* From [SCHEMATICS NETLIST] section of msim.ini:
.lib "nom.lib"
.lib "C:\MSimEv_8\UserLib\SIEMENS.LIB"
.lib "C:\MSimEv_8\UserLib\NAT_SEMI.LIB"
.lib "C:\MSimEv_8\UserLib\mos_int.lib"
.lib "C:\MSimEv_8\UserLib\LIN_TECH.LIB"

.INC "3_klirr.net"

**** INCLUDING 3_klirr.net ****
* Schematics Netlist *



V_V1         $N_0001 0 12V
R_R1         $N_0002 0  20k  
V_V2         0 $N_0003 12V
X_U1A         $N_0004 $N_0002 $N_0001 $N_0003 $N_0002 LM324
R_R2         $N_0005 0  20k  
X_U2A         $N_0004 $N_0005 $N_0001 $N_0003 $N_0005 LM324/NS
V_V4         $N_0004 0 DC 0V AC 0.5
+SIN 0 0.5 1379k 0 0 0

**** RESUMING 3_klirr.cir ****
.INC "3_klirr.als"



**** INCLUDING 3_klirr.als ****
* Schematics Aliases *

.ALIASES
V_V1            V1(+=$N_0001 -=0 )
R_R1            R1(1=$N_0002 2=0 )
V_V2            V2(+=0 -=$N_0003 )
X_U1A           U1A(+=$N_0004 -=$N_0002 V+=$N_0001 V-=$N_0003 OUT=$N_0002 )
R_R2            R2(1=$N_0005 2=0 )
X_U2A           U2A(+=$N_0004 -=$N_0005 V+=$N_0001 V-=$N_0003 OUT=$N_0005 )
V_V4            V4(+=$N_0004 -=0 )
.ENDALIASES


**** RESUMING 3_klirr.cir ****
.probe


.END

**** 05/21/112 20:36:11 ******** NT Evaluation PSpice (July 1997) ************

 * Y:\SSIM\UE\repo\abgabe3\sim\3_klirr.sch


 ****     Diode MODEL PARAMETERS


******************************************************************************




               X_U1A.dx        X_U2A.DX        
          IS  800.000000E-18    1.000000E-15 
          RS    1                            


**** 05/21/112 20:36:11 ******** NT Evaluation PSpice (July 1997) ************

 * Y:\SSIM\UE\repo\abgabe3\sim\3_klirr.sch


 ****     BJT MODEL PARAMETERS


******************************************************************************




               X_U1A.qx        X_U2A.QX        
               PNP             PNP             
          IS  800.000000E-18  100.000000E-18 
          BF  166.7             1.111000E+03 
          NF    1               1            
          BR    1               1            
          NR    1               1            


**** 05/21/112 20:36:11 ******** NT Evaluation PSpice (July 1997) ************

 * Y:\SSIM\UE\repo\abgabe3\sim\3_klirr.sch


 ****     SMALL SIGNAL BIAS SOLUTION       TEMPERATURE =   27.000 DEG C


******************************************************************************



 NODE   VOLTAGE     NODE   VOLTAGE     NODE   VOLTAGE     NODE   VOLTAGE


($N_0001)   12.0000                   ($N_0002)-192.5E-06                       

($N_0003)  -12.0000                   ($N_0004)    0.0000                       

($N_0005)     .0020                   (X_U1A.6)-43.37E-09                       

(X_U1A.7)-195.2E-06                   (X_U1A.8)-195.2E-06                       

(X_U1A.9)    0.0000                   (X_U2A.3)     .0010                       

(X_U2A.4)     .6987                   (X_U2A.5)  -11.9740                       

(X_U2A.6)  -11.9740                   (X_U2A.7)     .0020                       

(X_U2A.8)   10.3700                   (X_U2A.9)     .0020                       

(X_U1A.10)     .6076                  (X_U1A.11)  -11.9600                      

(X_U1A.12)  -11.9600                  (X_U1A.13)     .5937                      

(X_U1A.14)     .5937                  (X_U1A.53)   10.5000                      

(X_U1A.54)  -11.3500                  (X_U1A.90)-54.57E-06                      

(X_U1A.91)   40.0000                  (X_U1A.92)  -40.0000                      

(X_U1A.99)    0.0000                  (X_U2A.10)  -11.3650                      

(X_U2A.15)     .0020                  (X_U2A.16) 56.24E-09                      

(X_U2A.17)    0.0000                  (X_U2A.20)     .2720                      

(X_U2A.21)    -.2680                  (X_U2A.22)     .0020                      

(X_U2A.23)     .0020                  (X_U2A.24)     .0027                      

(X_U2A.25)     .0014                  (X_U2A.26)     .6320                      

(X_U2A.27)    -.6280                  (X_U2A.49)    0.0000                      

(X_U2A.98)    0.0000                  




    VOLTAGE SOURCE CURRENTS
    NAME         CURRENT

    V_V1        -2.770E-03
    V_V2        -2.769E-03
    V_V4         9.669E-08
    X_U1A.vb    -4.337E-13
    X_U1A.vc     1.050E-11
    X_U1A.ve     1.135E-11
    X_U1A.vlim  -5.457E-08
    X_U1A.vlp   -4.000E-11
    X_U1A.vln   -4.000E-11
    X_U2A.V2     1.037E-11
    X_U2A.V3     1.137E-11
    X_U2A.V6    -3.693E-05
    X_U2A.V7    -3.699E-05
    X_U2A.V5    -2.710E-13
    X_U2A.V4    -2.710E-13

    TOTAL POWER DISSIPATION   6.65E-02  WATTS


**** 05/21/112 20:36:11 ******** NT Evaluation PSpice (July 1997) ************

 * Y:\SSIM\UE\repo\abgabe3\sim\3_klirr.sch


 ****     OPERATING POINT INFORMATION      TEMPERATURE =   27.000 DEG C


******************************************************************************






**** VOLTAGE-CONTROLLED CURRENT SOURCES


NAME         X_U1A.ga    X_U1A.gcm   X_U2A.G1    X_U2A.G3    X_U2A.G4  
I-SOURCE     3.622E-08   3.622E-08   2.098E-11   2.022E-09   5.624E-11


**** VOLTAGE-CONTROLLED VOLTAGE SOURCES


NAME         X_U1A.egnd  X_U2A.EOS   X_U2A.EH    X_U2A.E1  
V-SOURCE     0.000E+00   2.000E-03   1.200E+01   1.200E+01
I-SOURCE     8.507E-08   4.495E-08   9.992E-13   6.205E-08


**** CURRENT-CONTROLLED CURRENT SOURCES


NAME         X_U1A.fb    X_U2A.F6  
I-SOURCE     1.647E-05   2.631E-04


**** CURRENT-CONTROLLED VOLTAGE SOURCES


NAME         X_U1A.hlim
V-SOURCE    -5.457E-05
I-SOURCE     1.092E-16


**** DIODES


NAME         X_U1A.dc    X_U1A.de    X_U1A.dlp   X_U1A.dln   X_U1A.dp  
MODEL        X_U1A.dx    X_U1A.dx    X_U1A.dx    X_U1A.dx    X_U1A.dx  
ID          -1.05E-11   -1.14E-11   -4.00E-11   -4.00E-11   -2.40E-11 
VD          -1.05E+01   -1.14E+01   -4.00E+01   -4.00E+01   -2.40E+01 
REQ          1.00E+12    1.00E+12    1.00E+12    1.00E+12    1.00E+12 
CAP          0.00E+00    0.00E+00    0.00E+00    0.00E+00    0.00E+00 

NAME         X_U2A.D1    X_U2A.D2    X_U2A.D5    X_U2A.D6    X_U2A.D4  
MODEL        X_U2A.DX    X_U2A.DX    X_U2A.DX    X_U2A.DX    X_U2A.DX  
ID          -1.04E-11   -1.14E-11    3.69E-05    3.70E-05   -2.71E-13 
VD          -1.04E+01   -1.14E+01    6.29E-01    6.29E-01   -2.70E-01 
REQ          1.00E+12    1.00E+12    7.00E+02    6.99E+02    1.00E+12 
CAP          0.00E+00    0.00E+00    0.00E+00    0.00E+00    0.00E+00 

NAME         X_U2A.D3  
MODEL        X_U2A.DX  
ID          -2.71E-13 
VD          -2.70E-01 
REQ          1.00E+12 
CAP          0.00E+00 


**** BIPOLAR JUNCTION TRANSISTORS


NAME         X_U1A.q1    X_U1A.q2    X_U2A.Q1    X_U2A.Q2  
MODEL        X_U1A.qx    X_U1A.qx    X_U2A.QX    X_U2A.QX  
IB          -4.50E-08   -4.47E-08   -4.50E-08   -4.50E-08 
IC          -7.50E-06   -7.46E-06   -5.00E-05   -5.00E-05 
VBE         -5.94E-01   -5.94E-01   -6.97E-01   -6.97E-01 
VBC          1.20E+01    1.20E+01    1.20E+01    1.20E+01 
VCE         -1.26E+01   -1.26E+01   -1.27E+01   -1.27E+01 
BETADC       1.67E+02    1.67E+02    1.11E+03    1.11E+03 
GM           2.90E-04    2.88E-04    1.93E-03    1.93E-03 
RPI          5.75E+05    5.78E+05    5.75E+05    5.75E+05 
RX           0.00E+00    0.00E+00    0.00E+00    0.00E+00 
RO           1.00E+12    1.00E+12    1.00E+12    1.00E+12 
CBE          0.00E+00    0.00E+00    0.00E+00    0.00E+00 
CBC          0.00E+00    0.00E+00    0.00E+00    0.00E+00 
CJS          0.00E+00    0.00E+00    0.00E+00    0.00E+00 
BETAAC       1.67E+02    1.67E+02    1.11E+03    1.11E+03 
CBX          0.00E+00    0.00E+00    0.00E+00    0.00E+00 
FT           4.61E+15    4.59E+15    3.07E+16    3.07E+16 


**** 05/21/112 20:36:11 ******** NT Evaluation PSpice (July 1997) ************

 * Y:\SSIM\UE\repo\abgabe3\sim\3_klirr.sch


 ****     INITIAL TRANSIENT SOLUTION       TEMPERATURE =   27.000 DEG C


******************************************************************************



 NODE   VOLTAGE     NODE   VOLTAGE     NODE   VOLTAGE     NODE   VOLTAGE


($N_0001)   12.0000                   ($N_0002)-192.5E-06                       

($N_0003)  -12.0000                   ($N_0004)    0.0000                       

($N_0005)     .0020                   (X_U1A.6)-43.37E-09                       

(X_U1A.7)-195.2E-06                   (X_U1A.8)-195.2E-06                       

(X_U1A.9)    0.0000                   (X_U2A.3)     .0010                       

(X_U2A.4)     .6987                   (X_U2A.5)  -11.9740                       

(X_U2A.6)  -11.9740                   (X_U2A.7)     .0020                       

(X_U2A.8)   10.3700                   (X_U2A.9)     .0020                       

(X_U1A.10)     .6076                  (X_U1A.11)  -11.9600                      

(X_U1A.12)  -11.9600                  (X_U1A.13)     .5937                      

(X_U1A.14)     .5937                  (X_U1A.53)   10.5000                      

(X_U1A.54)  -11.3500                  (X_U1A.90)-54.58E-06                      

(X_U1A.91)   40.0000                  (X_U1A.92)  -40.0000                      

(X_U1A.99)    0.0000                  (X_U2A.10)  -11.3650                      

(X_U2A.15)     .0020                  (X_U2A.16) 56.24E-09                      

(X_U2A.17)    0.0000                  (X_U2A.20)     .2720                      

(X_U2A.21)    -.2680                  (X_U2A.22)     .0020                      

(X_U2A.23)     .0020                  (X_U2A.24)     .0027                      

(X_U2A.25)     .0014                  (X_U2A.26)     .6320                      

(X_U2A.27)    -.6280                  (X_U2A.49)    0.0000                      

(X_U2A.98)    0.0000                  




    VOLTAGE SOURCE CURRENTS
    NAME         CURRENT

    V_V1        -2.770E-03
    V_V2        -2.769E-03
    V_V4         9.669E-08
    X_U1A.vb    -4.337E-13
    X_U1A.vc     1.050E-11
    X_U1A.ve     1.135E-11
    X_U1A.vlim  -5.458E-08
    X_U1A.vlp   -4.000E-11
    X_U1A.vln   -4.000E-11
    X_U2A.V2     1.037E-11
    X_U2A.V3     1.137E-11
    X_U2A.V6    -3.693E-05
    X_U2A.V7    -3.699E-05
    X_U2A.V5    -2.710E-13
    X_U2A.V4    -2.710E-13

    TOTAL POWER DISSIPATION   6.65E-02  WATTS



          JOB CONCLUDED

          TOTAL JOB TIME            3.19
